VG, IG, ID, logID, ID^0.5
-8.0,-5.5E-12,3.9190000000000006E-12,-11.406824736521898,1.979646433078392E-6
-7.8,-4.3350000000000004E-12,4.113E-12,-11.385841290490825,2.0280532537386685E-6
-7.6000000000000005,-4.586E-12,4.7320000000000004E-12,-11.324955264044107,2.1753160689885967E-6
-7.4,-5.246E-12,5.414E-12,-11.266481748565512,2.3268003782017914E-6
-7.2,-5.5340000000000005E-12,5.593E-12,-11.252355180671751,2.3649524308112414E-6
-7.0,-5.4680000000000005E-12,5.487E-12,-11.260665039803921,2.342434630891543E-6
-6.8,-5.132E-12,5.1970000000000006E-12,-11.284247283177141,2.2796929617823537E-6
-6.6000000000000005,-4.947000000000001E-12,4.953E-12,-11.305131672017543,2.2255336438706113E-6
-6.4,-4.918000000000001E-12,5.060000000000001E-12,-11.2958494831602,2.2494443758403987E-6
-6.2,-5.112E-12,5.336000000000001E-12,-11.272784179091508,2.309978354876946E-6
-6.0,-4.919E-12,5.7150000000000006E-12,-11.242983765268699,2.390606617576384E-6
-5.8,-5.5420000000000004E-12,7.137000000000001E-12,-11.14648430324307,2.6715164233071826E-6
-5.6000000000000005,-6.281E-12,7.975E-12,-11.098269308270782,2.824004249288588E-6
-5.4,-6.4570000000000005E-12,7.316E-12,-11.135726303195622,2.7048105294086683E-6
-5.2,-8.080000000000001E-12,9.039000000000001E-12,-11.04387961360698,3.006492973549082E-6
-5.0,-7.467000000000001E-12,1.0203000000000001E-11,-10.991272113347616,3.194213518223226E-6
-4.8,-8.788E-12,1.1732E-11,-10.930627945691485,3.425200724045235E-6
-4.6000000000000005,-1.0809E-11,1.2154000000000002E-11,-10.915280767988703,3.4862587396806913E-6
-4.4,-1.078E-11,1.4088E-11,-10.85115065704078,3.7533984600625604E-6
-4.2,-1.5893000000000003E-11,1.7845E-11,-10.74848344770832,4.224334267076885E-6
-4.0,-1.7577000000000002E-11,1.9628E-11,-10.707123950691122,4.430349873317004E-6
-3.8000000000000003,-1.8466E-11,1.4436000000000002E-11,-10.84055312661253,3.7994736477570154E-6
-3.6,-7.744000000000001E-12,1.1955E-11,-10.922450419548206,3.457600323924094E-6
-3.4,-6.7800000000000006E-12,1.3038000000000002E-11,-10.884789023295832,3.610817082046666E-6
-3.2,-6.602E-12,1.693E-11,-10.771343041891065,4.114608122288197E-6
-3.0,-6.6880000000000006E-12,2.0825000000000003E-11,-10.681414989921175,4.563441683641854E-6
-2.8000000000000003,-6.743000000000001E-12,2.7006000000000003E-11,-10.568539736677877,5.19672974090437E-6
-2.6,-6.2020000000000004E-12,3.5222E-11,-10.453185987258495,5.9348125496935455E-6
-2.4,-5.778000000000001E-12,4.9391000000000006E-11,-10.306352180761202,7.02787307796605E-6
-2.2,-5.788000000000001E-12,6.9358E-11,-10.158903438621335,8.328145051570607E-6
-2.0,-5.188E-12,9.9164E-11,-10.003645963319196,9.958112270907574E-6
-1.8,-4.434000000000001E-12,1.47048E-10,-9.83254087795644,1.2126334978054994E-5
-1.6,-4.454E-12,2.2183200000000002E-10,-9.653975805251791,1.4894025647889828E-5
-1.4000000000000001,-3.712E-12,3.38886E-10,-9.469946372290787,1.840885656416498E-5
-1.2,-3.3030000000000004E-12,5.259810000000001E-10,-9.279029943572858,2.29342756589346E-5
-1.0,-3.2650000000000003E-12,8.27953E-10,-9.08199431589627,2.8774172446831553E-5
-0.8,-3.581E-12,1.33648E-9,-8.874037535938218,3.655789928319186E-5
-0.6,-2.599E-12,2.16445E-9,-8.664652442179262,4.652364989980902E-5
-0.4,-2.1250000000000003E-12,3.5534E-9,-8.449355901991437,5.9610401776871125E-5
-0.2,-2.039E-12,5.94499E-9,-8.225848871566479,7.710376125715269E-5
0.0,-1.897E-12,1.004346E-8,-7.998116645752497,1.0021706441519828E-4
0.2,-2.377E-12,1.7790399999999998E-8,-7.749814287113388,1.3338065826798125E-4
0.4,-1.8740000000000003E-12,3.04313E-8,-7.516679494544,1.744456935553297E-4
0.6,-1.573E-12,5.1723799999999996E-8,-7.286309576243159,2.2742867013637484E-4
0.8,-1.412E-12,8.619119999999999E-8,-7.064537072766168,2.93583378276087E-4
1.0,-1.5400000000000001E-12,1.44547E-7,-6.839990917462476,3.80193371851746E-4
1.2,-1.162E-12,2.21419E-7,-6.654785114978928,4.705518037368468E-4
1.4000000000000001,-8.67E-13,3.26929E-7,-6.48554655393366,5.717770544539191E-4
1.6,-6.180000000000001E-13,4.6646999999999997E-7,-6.331176281721144,6.829860906343554E-4
1.8,-3.8500000000000003E-13,6.43046E-7,-6.191757958908425,8.019014902093648E-4
2.0,-1.3700000000000002E-13,8.59197E-7,-6.065907248038514,9.269287998546598E-4
2.2,1.7800000000000002E-13,1.120005E-6,-5.950780038519495,0.001058302886701156
2.4,3.0200000000000003E-13,1.4761300000000001E-6,-5.830875393328365,0.0012149609047208063
2.6,9.52E-13,1.8235000000000002E-6,-5.7390942323502,0.0013503703195790406
2.8000000000000003,1.7010000000000001E-12,2.22248E-6,-5.65316213853715,0.0014907984437877576
3.0,2.644E-12,2.6752700000000005E-6,-5.57263238052397,0.001635625262705367
3.2,3.755E-12,3.1818200000000003E-6,-5.497324392639745,0.0017837656796788081
3.4,5.273000000000001E-12,3.7438600000000004E-6,-5.426680399881654,0.001934905682455866
3.6,7.0830000000000004E-12,4.3609800000000006E-6,-5.360415905050846,0.0020882959560368833
3.8000000000000003,9.155000000000001E-12,5.03695E-6,-5.297832360206786,0.002244315040273981
4.0,1.1595000000000001E-11,5.7701300000000004E-6,-5.238814402156808,0.0024021094895945107
4.2,1.4917000000000002E-11,6.5629400000000006E-6,-5.182901566151126,0.002561823569256868
4.4,1.8625E-11,7.409790000000001E-6,-5.130194100135862,0.0027220929447761334
4.6000000000000005,2.2602000000000002E-11,8.31708E-6,-5.080029121121944,0.002883934812023323
4.8,2.7467000000000003E-11,9.281310000000001E-6,-5.032390721451481,0.003046524249041849
5.0,3.2834E-11,1.0297560000000002E-5,-4.987265668893953,0.003208981146719314
5.2,3.9061E-11,1.1373850000000001E-5,-4.944092503585333,0.00337251389915594
5.4,4.4865000000000005E-11,1.2648E-5,-4.897978143075847,0.0035564026768632375
5.6000000000000005,5.2975E-11,1.3792700000000001E-5,-4.860350709870376,0.00371385244725743
5.8,6.1911E-11,1.49924E-5,-4.8241288392447625,0.0038720020661151514
6.0,7.181300000000001E-11,1.62604E-5,-4.788868775122268,0.004032418629061224
6.2,8.3148E-11,1.75662E-5,-4.755322176895178,0.004191205077301754
6.4,9.4939E-11,1.89529E-5,-4.722324328828494,0.004353492850574123
6.6000000000000005,1.0887500000000001E-10,2.03245E-5,-4.6919801296164,0.0045082701782391
6.8,1.2410000000000002E-10,2.17348E-5,-4.6628443517600555,0.00466205963067827
7.0,1.40825E-10,2.3186400000000002E-5,-4.634766676178859,0.00481522585140095
7.2,1.6013900000000002E-10,2.4657400000000002E-5,-4.608052719515766,0.004965621814032962
7.4,1.8094200000000001E-10,2.61472E-5,-4.582574811181281,0.005113433288897001
7.6000000000000005,2.05035E-10,2.76684E-5,-4.558015954384962,0.005260076045077676
7.8,2.3038800000000003E-10,2.92055E-5,-4.53453535421175,0.005404211320812686
8.0,2.6025900000000003E-10,3.07412E-5,-4.512279183576469,0.0055444747271495435
8.2,2.91057E-10,3.22985E-5,-4.490817646611611,0.005683176928444161
8.4,3.24066E-10,3.38551E-5,-4.470375899060943,0.0058185135558834955
8.6,3.6107900000000005E-10,3.54211E-5,-4.450737955949101,0.005951562819965861
8.8,4.00646E-10,3.69829E-5,-4.43199903680539,0.006081356756514125
9.0,4.41667E-10,3.85657E-5,-4.413798781418577,0.006210128823140467
9.200000000000001,4.86596E-10,4.01291E-5,-4.39654058034632,0.006334753349578814
9.4,5.32987E-10,4.1700200000000004E-5,-4.379861862084082,0.006457569202106935
9.6,5.82741E-10,4.32843E-5,-4.363669601563476,0.006579080482863848
9.8,6.370120000000001E-10,4.48601E-5,-4.348139762643381,0.006697768285033456
10.0,6.95429E-10,4.64584E-5,-4.33293575112503,0.006816039905986467
