VG, IG, ID, logID, ID^0.5
-5.0,-7.474200000000001E-11,6.9330000000000004E-12,-11.159078799801229,2.6330590574463007E-6
-4.8,-6.134800000000001E-11,6.25E-12,-11.204119982655925,2.5E-6
-4.6000000000000005,-5.3351000000000004E-11,5.803E-12,-11.236347429435469,2.4089416763383875E-6
-4.4,-4.7009000000000005E-11,5.281000000000001E-12,-11.277283832511506,2.2980426453832403E-6
-4.2,-4.1680000000000005E-11,4.848E-12,-11.31443738884177,2.2018174311236618E-6
-4.0,-3.7280000000000006E-11,4.464E-12,-11.350275814070478,2.112818023399081E-6
-3.8000000000000003,-3.3412E-11,4.199E-12,-11.37685412536206,2.049146163649631E-6
-3.6,-3.0066000000000004E-11,3.847E-12,-11.414877813693185,1.9613770672667712E-6
-3.4,-2.7179E-11,3.639E-12,-11.439017944413765,1.907616313622842E-6
-3.2,-2.4640000000000002E-11,3.384E-12,-11.470569645633015,1.8395651660107071E-6
-3.0,-2.2314E-11,3.1980000000000003E-12,-11.495121540589784,1.7882952776317451E-6
-2.8000000000000003,-2.0131E-11,2.9650000000000004E-12,-11.52797530229972,1.7219175357722566E-6
-2.6,-1.7841000000000002E-11,2.8940000000000004E-12,-11.538501473216982,1.7011760637864618E-6
-2.4,-1.5395000000000002E-11,2.7420000000000002E-12,-11.561932549546507,1.6558985476169729E-6
-2.2,-1.2789000000000001E-11,2.9930000000000003E-12,-11.523893283159808,1.730028901492689E-6
-2.0,-1.0046000000000001E-11,6.5040000000000006E-12,-11.186819467413988,2.550294100687213E-6
-1.8,-7.480000000000001E-12,3.1303000000000004E-11,-10.504414038779073,5.594908399607629E-6
-1.6,-5.365000000000001E-12,1.6589700000000002E-10,-9.780161467473084,1.2880100931281557E-5
-1.4000000000000001,-3.724000000000001E-12,7.66925E-10,-9.115247104993331,2.76934107686287E-5
-1.2,-5.104E-12,2.92327E-9,-8.534131070343978,5.4067272910698945E-5
-1.0,-1.805E-12,1.046249E-8,-7.980364944095161,1.0228631384501057E-4
-0.8,-3.4780000000000003E-12,2.95769E-8,-7.52904734702087,1.7197935922662347E-4
-0.6,-6.400000000000001E-13,7.3434E-8,-7.134102814831623,2.709870845630839E-4
-0.4,-2.226E-12,1.551E-7,-6.809388202186395,3.9382737335030436E-4
-0.2,1.28E-13,2.91195E-7,-6.535816086402449,5.396248697011656E-4
0.0,5.44E-13,4.942069999999999E-7,-6.306091107497591,7.029985775234541E-4
0.2,9.560000000000002E-13,7.758229999999999E-7,-6.1102373494781395,8.808081516425697E-4
0.4,1.329E-12,1.1490300000000001E-6,-5.939668632178233,0.0010719281692352339
0.6,1.713E-12,1.6188900000000002E-6,-5.790782659594981,0.0012723560822348436
0.8,2.227E-12,2.1953300000000004E-6,-5.658500187764988,0.001481664604423012
1.0,2.8380000000000002E-12,2.8844800000000004E-6,-5.539932467945135,0.0016983756945976353
1.2,3.5500000000000004E-12,3.6921500000000003E-6,-5.432720663320835,0.0019214968123835126
1.4000000000000001,4.4660000000000006E-12,4.621610000000001E-6,-5.335206705761753,0.00214979301329221
1.6,5.5050000000000005E-12,5.680850000000001E-6,-5.245586677899705,0.0023834533769302056
1.8,6.785000000000001E-12,6.875810000000001E-6,-5.162676132725479,0.002622176576815528
2.0,8.303000000000001E-12,8.201500000000001E-6,-5.086106710769084,0.002863826112039626
2.2,9.912E-12,9.665970000000002E-6,-5.01475455710265,0.003109014313251067
2.4,1.1648E-11,1.126821E-5,-4.948145067881565,0.0033568154551598456
2.6,1.2621000000000001E-11,1.30754E-5,-4.883545016408255,0.003615992256628877
2.8000000000000003,1.4812000000000003E-11,1.49537E-5,-4.825251336385038,0.0038670014222909202
3.0,1.6980000000000002E-11,1.69828E-5,-4.769990704887166,0.004121019291388964
3.2,1.9065E-11,1.91569E-5,-4.717674767795015,0.004376859604785148
3.4,2.1205000000000003E-11,2.14781E-5,-4.668004139919049,0.004634447108339893
3.6,2.3280000000000003E-11,2.3948100000000002E-5,-4.62072893704057,0.004893679597194733
3.8000000000000003,2.5194E-11,2.65608E-5,-4.575758848341928,0.005153717105158179
4.0,2.7122000000000003E-11,2.93122E-5,-4.532951584768519,0.005414074251430248
4.2,2.8902000000000003E-11,3.21982E-5,-4.49216840631404,0.005674345777268072
4.4,3.0729000000000004E-11,3.52264E-5,-4.453131737744727,0.005935183232217856
4.6000000000000005,3.2601000000000005E-11,3.8378000000000004E-5,-4.415917661481628,0.006194997982243417
4.8,3.4448000000000003E-11,4.1644200000000004E-5,-4.3804454764516105,0.0064532317485117485
5.0,3.6523E-11,4.50266E-5,-4.346530845774949,0.006710186286534824
5.2,3.8923000000000006E-11,4.852E-5,-4.314079207805465,0.0069656299069072
5.4,4.1442000000000005E-11,5.2121100000000005E-5,-4.282986427209473,0.007219494442133743
5.6000000000000005,4.4503E-11,5.583E-5,-4.253132372149571,0.007471947537289057
5.8,4.8127000000000006E-11,5.9637000000000005E-5,-4.2244842115673915,0.007722499595338287
6.0,5.2064E-11,6.35469E-5,-4.196905630723378,0.007971630949811964
6.2,5.668400000000001E-11,6.75612E-5,-4.1703026452355765,0.00821956203212799
6.4,6.2105E-11,7.16729E-5,-4.144645022926617,0.008465984880685767
6.6000000000000005,6.7981E-11,7.59079E-5,-4.119713023210362,0.008712513988511009
6.8,7.468800000000001E-11,8.02359E-5,-4.095631271573742,0.008957449413756128
7.0,8.2476E-11,8.46458E-5,-4.072394586073371,0.00920031521199138
7.2,9.0865E-11,8.920070000000001E-5,-4.049631737496696,0.009444612220731988
7.4,1.01225E-10,9.37511E-5,-4.028023627908217,0.009682515169107663
7.6000000000000005,1.1292300000000001E-10,9.84267E-5,-4.006887075453219,0.009921023132721746
7.8,1.26021E-10,1.03196E-4,-3.986337136154493,0.010158543202644758
8.0,1.41006E-10,1.080652E-4,-3.966314138435074,0.010395441308573677
8.2,1.57859E-10,1.130241E-4,-3.946828942524944,0.01063127932094722
8.4,1.7570900000000002E-10,1.1834100000000001E-4,-3.9268647651870534,0.01087846496524211
8.6,1.9716000000000002E-10,1.23402E-4,-3.9086778015513586,0.011108645281941448
8.8,2.2173600000000002E-10,1.28596E-4,-3.8907725400039035,0.011340017636670589
9.0,2.4961000000000003E-10,1.33878E-4,-3.873290784179899,0.011570566105424574
9.200000000000001,2.80989E-10,1.3924100000000002E-4,-3.856232866363601,0.011800042372805278
9.4,3.16365E-10,1.4471000000000002E-4,-3.839501456477654,0.012029546957387881
9.6,3.5680500000000004E-10,1.50263E-4,-3.8231479447226713,0.012258180941722145
9.8,4.00832E-10,1.55871E-4,-3.8072346783423816,0.01248483079580977
10.0,4.51123E-10,1.6153E-4,-3.791746806927315,0.01270944530654269
